                 * /home/ash98/esim-workspace/ina128/ina128.cir
                 Transient Analysis  Thu Jan  2 12:28:35  2020
--------------------------------------------------------------------------------
Index   time            v1#branch       v2#branch       v3#branch       
--------------------------------------------------------------------------------
0	0.000000e+00	3.178424e-08	-1.07181e-02	-1.07195e-02	
1	1.000000e-05	-1.11095e-06	-1.07242e-02	-1.07134e-02	
2	2.000000e-05	-2.40796e-06	-1.07321e-02	-1.07072e-02	
3	4.000000e-05	-5.03780e-06	-1.07491e-02	-1.06956e-02	
4	8.000000e-05	-1.03085e-05	-1.07886e-02	-1.06779e-02	
5	1.600000e-04	-2.08342e-05	-1.08832e-02	-1.06581e-02	
6	3.200000e-04	-4.18487e-05	-1.11008e-02	-1.06472e-02	
7	6.400000e-04	-8.34978e-05	-1.15583e-02	-1.06521e-02	
8	1.065999e-03	-1.37570e-04	-1.21613e-02	-1.06675e-02	
9	1.917996e-03	-2.37399e-04	-1.32801e-02	-1.07015e-02	
10	2.917996e-03	-3.32550e-04	-1.43503e-02	-1.07375e-02	
11	3.917996e-03	-3.95137e-04	-1.50559e-02	-1.07629e-02	
12	4.917996e-03	-4.19050e-04	-1.53258e-02	-1.07729e-02	
13	5.917996e-03	-4.01933e-04	-1.51327e-02	-1.07657e-02	
14	6.917996e-03	-3.45476e-04	-1.44961e-02	-1.07425e-02	
15	7.917996e-03	-2.55192e-04	-1.34802e-02	-1.07077e-02	
16	8.917996e-03	-1.39931e-04	-1.21881e-02	-1.06683e-02	
17	9.917996e-03	-1.09631e-05	-1.07943e-02	-1.06760e-02	
18	1.091800e-02	1.190754e-04	-1.06056e-02	-1.19005e-02	
19	1.191800e-02	2.374681e-04	-1.05888e-02	-1.31703e-02	
20	1.291800e-02	3.326113e-04	-1.05804e-02	-1.41959e-02	
21	1.391800e-02	3.952067e-04	-1.05767e-02	-1.48725e-02	
22	1.491800e-02	4.191122e-04	-1.05756e-02	-1.51313e-02	
23	1.591800e-02	4.020026e-04	-1.05763e-02	-1.49462e-02	
24	1.691800e-02	3.455379e-04	-1.05795e-02	-1.43357e-02	
25	1.791800e-02	2.552600e-04	-1.05867e-02	-1.33620e-02	
26	1.891800e-02	1.399914e-04	-1.06018e-02	-1.21244e-02	
27	1.991800e-02	1.103018e-05	-1.06735e-02	-1.07947e-02	
28	2.091800e-02	-1.19014e-04	-1.19540e-02	-1.06618e-02	
29	2.191800e-02	-2.37400e-04	-1.32802e-02	-1.07015e-02	
30	2.291800e-02	-3.32549e-04	-1.43503e-02	-1.07375e-02	
31	2.391800e-02	-3.95138e-04	-1.50559e-02	-1.07629e-02	
32	2.491800e-02	-4.19050e-04	-1.53258e-02	-1.07729e-02	
33	2.591800e-02	-4.01934e-04	-1.51327e-02	-1.07657e-02	
34	2.691800e-02	-3.45476e-04	-1.44961e-02	-1.07425e-02	
35	2.791800e-02	-2.55192e-04	-1.34802e-02	-1.07077e-02	
36	2.891800e-02	-1.39931e-04	-1.21881e-02	-1.06683e-02	
37	2.991800e-02	-1.09638e-05	-1.07943e-02	-1.06760e-02	
38	3.091800e-02	1.190761e-04	-1.06056e-02	-1.19005e-02	
39	3.191800e-02	2.374674e-04	-1.05888e-02	-1.31703e-02	
40	3.291800e-02	3.326120e-04	-1.05804e-02	-1.41959e-02	
41	3.391800e-02	3.952060e-04	-1.05767e-02	-1.48725e-02	
42	3.491800e-02	4.191129e-04	-1.05756e-02	-1.51313e-02	
43	3.591800e-02	4.020019e-04	-1.05763e-02	-1.49462e-02	
44	3.691800e-02	3.455386e-04	-1.05795e-02	-1.43357e-02	
45	3.791800e-02	2.552593e-04	-1.05867e-02	-1.33620e-02	
46	3.891800e-02	1.399921e-04	-1.06018e-02	-1.21244e-02	
47	3.991800e-02	1.102942e-05	-1.06735e-02	-1.07947e-02	
48	4.091800e-02	-1.19014e-04	-1.19539e-02	-1.06618e-02	
49	4.191800e-02	-2.37401e-04	-1.32802e-02	-1.07015e-02	
50	4.291800e-02	-3.32548e-04	-1.43503e-02	-1.07375e-02	
51	4.391800e-02	-3.95139e-04	-1.50559e-02	-1.07629e-02	
52	4.491800e-02	-4.19049e-04	-1.53258e-02	-1.07729e-02	
53	4.591800e-02	-4.01935e-04	-1.51327e-02	-1.07657e-02	
54	4.691800e-02	-3.45475e-04	-1.44961e-02	-1.07425e-02	

Index   time            v1#branch       v2#branch       v3#branch       
--------------------------------------------------------------------------------
55	4.791800e-02	-2.55193e-04	-1.34802e-02	-1.07077e-02	
56	4.891800e-02	-1.39930e-04	-1.21881e-02	-1.06683e-02	
57	4.991800e-02	-1.09646e-05	-1.07943e-02	-1.06760e-02	
58	5.091800e-02	1.190769e-04	-1.06056e-02	-1.19005e-02	
59	5.191800e-02	2.374665e-04	-1.05888e-02	-1.31703e-02	
60	5.291800e-02	3.326129e-04	-1.05804e-02	-1.41959e-02	
61	5.391800e-02	3.952052e-04	-1.05767e-02	-1.48725e-02	
62	5.491800e-02	4.191138e-04	-1.05756e-02	-1.51313e-02	
63	5.591800e-02	4.020010e-04	-1.05763e-02	-1.49462e-02	
64	5.691800e-02	3.455395e-04	-1.05795e-02	-1.43358e-02	
65	5.791800e-02	2.552584e-04	-1.05867e-02	-1.33620e-02	
66	5.891800e-02	1.399931e-04	-1.06018e-02	-1.21244e-02	
67	5.991800e-02	1.102849e-05	-1.06735e-02	-1.07946e-02	
68	6.091800e-02	-1.19013e-04	-1.19539e-02	-1.06618e-02	
69	6.191800e-02	-2.37402e-04	-1.32802e-02	-1.07015e-02	
70	6.291800e-02	-3.32547e-04	-1.43503e-02	-1.07375e-02	
71	6.391800e-02	-3.95140e-04	-1.50559e-02	-1.07629e-02	
72	6.491800e-02	-4.19048e-04	-1.53258e-02	-1.07729e-02	
73	6.591800e-02	-4.01936e-04	-1.51327e-02	-1.07657e-02	
74	6.691800e-02	-3.45474e-04	-1.44960e-02	-1.07425e-02	
75	6.791800e-02	-2.55194e-04	-1.34802e-02	-1.07077e-02	
76	6.891800e-02	-1.39929e-04	-1.21881e-02	-1.06683e-02	
77	6.991800e-02	-1.09656e-05	-1.07944e-02	-1.06760e-02	
78	7.091800e-02	1.190779e-04	-1.06056e-02	-1.19005e-02	
79	7.191800e-02	2.374655e-04	-1.05888e-02	-1.31703e-02	
80	7.291800e-02	3.326139e-04	-1.05804e-02	-1.41959e-02	
81	7.391800e-02	3.952041e-04	-1.05767e-02	-1.48725e-02	
82	7.491800e-02	4.191149e-04	-1.05756e-02	-1.51313e-02	
83	7.591800e-02	4.019999e-04	-1.05763e-02	-1.49461e-02	
84	7.691800e-02	3.455406e-04	-1.05795e-02	-1.43358e-02	
85	7.791800e-02	2.552573e-04	-1.05867e-02	-1.33619e-02	
86	7.891800e-02	1.399941e-04	-1.06018e-02	-1.21244e-02	
87	7.991800e-02	1.102741e-05	-1.06735e-02	-1.07946e-02	
88	8.091800e-02	-1.19012e-04	-1.19539e-02	-1.06618e-02	
89	8.191800e-02	-2.37403e-04	-1.32802e-02	-1.07015e-02	
90	8.291800e-02	-3.32546e-04	-1.43503e-02	-1.07375e-02	
91	8.391800e-02	-3.95141e-04	-1.50559e-02	-1.07629e-02	
92	8.491800e-02	-4.19047e-04	-1.53258e-02	-1.07729e-02	
93	8.591800e-02	-4.01937e-04	-1.51327e-02	-1.07657e-02	
94	8.691800e-02	-3.45473e-04	-1.44960e-02	-1.07425e-02	
95	8.791800e-02	-2.55195e-04	-1.34802e-02	-1.07077e-02	
96	8.891800e-02	-1.39928e-04	-1.21881e-02	-1.06683e-02	
97	8.991800e-02	-1.09668e-05	-1.07944e-02	-1.06760e-02	
98	9.091800e-02	1.190791e-04	-1.06056e-02	-1.19005e-02	
99	9.191800e-02	2.374643e-04	-1.05888e-02	-1.31702e-02	
100	9.291800e-02	3.326151e-04	-1.05804e-02	-1.41960e-02	
101	9.391800e-02	3.952030e-04	-1.05767e-02	-1.48725e-02	
102	9.491800e-02	4.191160e-04	-1.05756e-02	-1.51313e-02	
103	9.591800e-02	4.019987e-04	-1.05763e-02	-1.49461e-02	
104	9.691800e-02	3.455418e-04	-1.05795e-02	-1.43358e-02	
105	9.791800e-02	2.552561e-04	-1.05867e-02	-1.33619e-02	
106	9.891800e-02	1.399953e-04	-1.06018e-02	-1.21245e-02	
107	9.991800e-02	1.102620e-05	-1.06735e-02	-1.07946e-02	
108	1.000000e-01	2.299817e-07	-1.07169e-02	-1.07207e-02	
