                 * /home/ash98/esim-workspace/ina128/ina128.cir
                 Transient Analysis  Thu Jan  2 12:28:35  2020
--------------------------------------------------------------------------------
Index   time            in              net-_r1-pad2_   net-_r3-pad1_   
--------------------------------------------------------------------------------
0	0.000000e+00	0.000000e+00	3.178424e-05	1.519514e-03	
1	1.000000e-05	1.570794e-03	4.598442e-04	1.842187e-03	
2	2.000000e-05	3.141572e-03	7.336086e-04	2.105505e-03	
3	4.000000e-05	6.283020e-03	1.245218e-03	2.614647e-03	
4	8.000000e-05	1.256505e-02	2.256505e-03	3.626703e-03	
5	1.600000e-04	2.512216e-02	4.287993e-03	5.654817e-03	
6	3.200000e-04	5.018086e-02	8.332181e-03	9.697105e-03	
7	6.400000e-04	9.985499e-02	1.635721e-02	1.771478e-02	
8	1.065999e-03	1.643342e-01	2.676387e-02	2.811732e-02	
9	1.917996e-03	2.833752e-01	4.597588e-02	4.732337e-02	
10	2.917996e-03	3.968038e-01	6.425402e-02	6.561214e-02	
11	3.917996e-03	4.713904e-01	7.625320e-02	7.763079e-02	
12	4.917996e-03	4.998341e-01	8.078387e-02	8.219533e-02	
13	5.917996e-03	4.793505e-01	7.741735e-02	7.886614e-02	
14	6.917996e-03	4.119448e-01	6.646834e-02	6.796193e-02	
15	7.917996e-03	3.042150e-01	4.902337e-02	5.055747e-02	
16	8.917996e-03	1.667066e-01	2.677540e-02	2.834946e-02	
17	9.917996e-03	1.287970e-02	1.916586e-03	3.518781e-03	
18	1.091800e-02	-1.42208e-01	-2.31325e-02	-2.15092e-02	
19	1.191800e-02	-2.83375e-01	-4.59072e-02	-4.42794e-02	
20	1.291800e-02	-3.96804e-01	-6.41924e-02	-6.25700e-02	
21	1.391800e-02	-4.71390e-01	-7.61837e-02	-7.45834e-02	
22	1.491800e-02	-4.99834e-01	-8.07219e-02	-7.91512e-02	
23	1.591800e-02	-4.79351e-01	-7.73479e-02	-7.58189e-02	
24	1.691800e-02	-4.11945e-01	-6.64069e-02	-6.49200e-02	
25	1.791800e-02	-3.04215e-01	-4.89550e-02	-4.75139e-02	
26	1.891800e-02	-1.66707e-01	-2.67152e-02	-2.53114e-02	
27	1.991800e-02	-1.28797e-02	-1.84953e-03	-4.78138e-04	
28	2.091800e-02	1.422079e-01	2.319353e-02	2.454806e-02	
29	2.191800e-02	2.833752e-01	4.597531e-02	4.732289e-02	
30	2.291800e-02	3.968038e-01	6.425460e-02	6.561263e-02	
31	2.391800e-02	4.713904e-01	7.625260e-02	7.763029e-02	
32	2.491800e-02	4.998341e-01	8.078448e-02	8.219584e-02	
33	2.591800e-02	4.793505e-01	7.741673e-02	7.886564e-02	
34	2.691800e-02	4.119448e-01	6.646897e-02	6.796244e-02	
35	2.791800e-02	3.042150e-01	4.902273e-02	5.055695e-02	
36	2.891800e-02	1.667066e-01	2.677605e-02	2.834998e-02	
37	2.991800e-02	1.287970e-02	1.915930e-03	3.518264e-03	
38	3.091800e-02	-1.42208e-01	-2.31318e-02	-2.15087e-02	
39	3.191800e-02	-2.83375e-01	-4.59078e-02	-4.42799e-02	
40	3.291800e-02	-3.96804e-01	-6.41918e-02	-6.25695e-02	
41	3.391800e-02	-4.71390e-01	-7.61844e-02	-7.45839e-02	
42	3.491800e-02	-4.99834e-01	-8.07212e-02	-7.91507e-02	
43	3.591800e-02	-4.79351e-01	-7.73487e-02	-7.58194e-02	
44	3.691800e-02	-4.11945e-01	-6.64062e-02	-6.49195e-02	
45	3.791800e-02	-3.04215e-01	-4.89557e-02	-4.75144e-02	
46	3.891800e-02	-1.66707e-01	-2.67144e-02	-2.53109e-02	
47	3.991800e-02	-1.28797e-02	-1.85028e-03	-4.78690e-04	
48	4.091800e-02	1.422079e-01	2.319429e-02	2.454862e-02	
49	4.191800e-02	2.833752e-01	4.597454e-02	4.732232e-02	
50	4.291800e-02	3.968038e-01	6.425539e-02	6.561320e-02	
51	4.391800e-02	4.713904e-01	7.625180e-02	7.762972e-02	
52	4.491800e-02	4.998341e-01	8.078529e-02	8.219641e-02	
53	4.591800e-02	4.793505e-01	7.741591e-02	7.886506e-02	
54	4.691800e-02	4.119448e-01	6.646980e-02	6.796302e-02	

Index   time            in              net-_r1-pad2_   net-_r3-pad1_   
--------------------------------------------------------------------------------
55	4.791800e-02	3.042150e-01	4.902190e-02	5.055637e-02	
56	4.891800e-02	1.667066e-01	2.677689e-02	2.835056e-02	
57	4.991800e-02	1.287970e-02	1.915084e-03	3.517679e-03	
58	5.091800e-02	-1.42208e-01	-2.31310e-02	-2.15081e-02	
59	5.191800e-02	-2.83375e-01	-4.59087e-02	-4.42805e-02	
60	5.291800e-02	-3.96804e-01	-6.41909e-02	-6.25689e-02	
61	5.391800e-02	-4.71390e-01	-7.61852e-02	-7.45845e-02	
62	5.491800e-02	-4.99834e-01	-8.07203e-02	-7.91501e-02	
63	5.591800e-02	-4.79351e-01	-7.73495e-02	-7.58200e-02	
64	5.691800e-02	-4.11945e-01	-6.64053e-02	-6.49189e-02	
65	5.791800e-02	-3.04215e-01	-4.89566e-02	-4.75150e-02	
66	5.891800e-02	-1.66707e-01	-2.67135e-02	-2.53103e-02	
67	5.991800e-02	-1.28797e-02	-1.85121e-03	-4.79303e-04	
68	6.091800e-02	1.422079e-01	2.319523e-02	2.454924e-02	
69	6.191800e-02	2.833752e-01	4.597359e-02	4.732170e-02	
70	6.291800e-02	3.968038e-01	6.425635e-02	6.561383e-02	
71	6.391800e-02	4.713904e-01	7.625083e-02	7.762909e-02	
72	6.491800e-02	4.998341e-01	8.078627e-02	8.219705e-02	
73	6.591800e-02	4.793505e-01	7.741493e-02	7.886442e-02	
74	6.691800e-02	4.119448e-01	6.647079e-02	6.796366e-02	
75	6.791800e-02	3.042150e-01	4.902090e-02	5.055573e-02	
76	6.891800e-02	1.667066e-01	2.677789e-02	2.835120e-02	
77	6.991800e-02	1.287970e-02	1.914073e-03	3.517039e-03	
78	7.091800e-02	-1.42208e-01	-2.31300e-02	-2.15075e-02	
79	7.191800e-02	-2.83375e-01	-4.59097e-02	-4.42812e-02	
80	7.291800e-02	-3.96804e-01	-6.41899e-02	-6.25683e-02	
81	7.391800e-02	-4.71390e-01	-7.61863e-02	-7.45852e-02	
82	7.491800e-02	-4.99834e-01	-8.07192e-02	-7.91494e-02	
83	7.591800e-02	-4.79351e-01	-7.73506e-02	-7.58207e-02	
84	7.691800e-02	-4.11945e-01	-6.64042e-02	-6.49182e-02	
85	7.791800e-02	-3.04215e-01	-4.89577e-02	-4.75157e-02	
86	7.891800e-02	-1.66707e-01	-2.67124e-02	-2.53096e-02	
87	7.991800e-02	-1.28797e-02	-1.85229e-03	-4.79966e-04	
88	8.091800e-02	1.422079e-01	2.319632e-02	2.454990e-02	
89	8.191800e-02	2.833752e-01	4.597249e-02	4.732103e-02	
90	8.291800e-02	3.968038e-01	6.425746e-02	6.561450e-02	
91	8.391800e-02	4.713904e-01	7.624972e-02	7.762841e-02	
92	8.491800e-02	4.998341e-01	8.078739e-02	8.219773e-02	
93	8.591800e-02	4.793505e-01	7.741380e-02	7.886374e-02	
94	8.691800e-02	4.119448e-01	6.647192e-02	6.796434e-02	
95	8.791800e-02	3.042150e-01	4.901976e-02	5.055505e-02	
96	8.891800e-02	1.667066e-01	2.677904e-02	2.835188e-02	
97	8.991800e-02	1.287970e-02	1.912923e-03	3.516355e-03	
98	9.091800e-02	-1.42208e-01	-2.31288e-02	-2.15068e-02	
99	9.191800e-02	-2.83375e-01	-4.59109e-02	-4.42819e-02	
100	9.291800e-02	-3.96804e-01	-6.41887e-02	-6.25676e-02	
101	9.391800e-02	-4.71390e-01	-7.61875e-02	-7.45858e-02	
102	9.491800e-02	-4.99834e-01	-8.07181e-02	-7.91487e-02	
103	9.591800e-02	-4.79351e-01	-7.73518e-02	-7.58214e-02	
104	9.691800e-02	-4.11945e-01	-6.64030e-02	-6.49175e-02	
105	9.791800e-02	-3.04215e-01	-4.89589e-02	-4.75164e-02	
106	9.891800e-02	-1.66707e-01	-2.67112e-02	-2.53089e-02	
107	9.991800e-02	-1.28797e-02	-1.85350e-03	-4.80668e-04	
108	1.000000e-01	-6.12323e-16	2.299817e-04	1.601258e-03	

                 * /home/ash98/esim-workspace/ina128/ina128.cir
                 Transient Analysis  Thu Jan  2 12:28:35  2020
--------------------------------------------------------------------------------
Index   time            net-_r3-pad2_   net-_x1-pad4_   net-_x1-pad7_   
--------------------------------------------------------------------------------
0	0.000000e+00	1.487788e-03	-3.00000e+01	3.000000e+01	
1	1.000000e-05	1.585429e-03	-3.00000e+01	3.000000e+01	
2	2.000000e-05	1.598328e-03	-3.00000e+01	3.000000e+01	
3	4.000000e-05	1.601455e-03	-3.00000e+01	3.000000e+01	
4	8.000000e-05	1.600062e-03	-3.00000e+01	3.000000e+01	
5	1.600000e-04	1.603852e-03	-3.00000e+01	3.000000e+01	
6	3.200000e-04	1.605075e-03	-3.00000e+01	3.000000e+01	
7	6.400000e-04	1.612662e-03	-3.00000e+01	3.000000e+01	
8	1.065999e-03	1.616189e-03	-3.00000e+01	3.000000e+01	
9	1.917996e-03	1.623022e-03	-3.00000e+01	3.000000e+01	
10	2.917996e-03	1.613273e-03	-3.00000e+01	3.000000e+01	
11	3.917996e-03	1.595970e-03	-3.00000e+01	3.000000e+01	
12	4.917996e-03	1.563290e-03	-3.00000e+01	3.000000e+01	
13	5.917996e-03	1.527685e-03	-3.00000e+01	3.000000e+01	
14	6.917996e-03	1.483396e-03	-3.00000e+01	3.000000e+01	
15	7.917996e-03	1.444135e-03	-3.00000e+01	3.000000e+01	
16	8.917996e-03	1.404731e-03	-3.00000e+01	3.000000e+01	
17	9.917996e-03	1.378339e-03	-3.00000e+01	3.000000e+01	
18	1.091800e-02	1.358520e-03	-3.00000e+01	3.000000e+01	
19	1.191800e-02	1.356191e-03	-3.00000e+01	3.000000e+01	
20	1.291800e-02	1.362441e-03	-3.00000e+01	3.000000e+01	
21	1.391800e-02	1.385436e-03	-3.00000e+01	3.000000e+01	
22	1.491800e-02	1.413869e-03	-3.00000e+01	3.000000e+01	
23	1.591800e-02	1.453800e-03	-3.00000e+01	3.000000e+01	
24	1.691800e-02	1.492513e-03	-3.00000e+01	3.000000e+01	
25	1.791800e-02	1.535178e-03	-3.00000e+01	3.000000e+01	
26	1.891800e-02	1.568994e-03	-3.00000e+01	3.000000e+01	
27	1.991800e-02	1.599522e-03	-3.00000e+01	3.000000e+01	
28	2.091800e-02	1.615124e-03	-3.00000e+01	3.000000e+01	
29	2.191800e-02	1.622908e-03	-3.00000e+01	3.000000e+01	
30	2.291800e-02	1.613394e-03	-3.00000e+01	3.000000e+01	
31	2.391800e-02	1.595842e-03	-3.00000e+01	3.000000e+01	
32	2.491800e-02	1.563424e-03	-3.00000e+01	3.000000e+01	
33	2.591800e-02	1.527544e-03	-3.00000e+01	3.000000e+01	
34	2.691800e-02	1.483543e-03	-3.00000e+01	3.000000e+01	
35	2.791800e-02	1.443981e-03	-3.00000e+01	3.000000e+01	
36	2.891800e-02	1.404890e-03	-3.00000e+01	3.000000e+01	
37	2.991800e-02	1.378173e-03	-3.00000e+01	3.000000e+01	
38	3.091800e-02	1.358692e-03	-3.00000e+01	3.000000e+01	
39	3.191800e-02	1.356014e-03	-3.00000e+01	3.000000e+01	
40	3.291800e-02	1.362624e-03	-3.00000e+01	3.000000e+01	
41	3.391800e-02	1.385247e-03	-3.00000e+01	3.000000e+01	
42	3.491800e-02	1.414064e-03	-3.00000e+01	3.000000e+01	
43	3.591800e-02	1.453599e-03	-3.00000e+01	3.000000e+01	
44	3.691800e-02	1.492720e-03	-3.00000e+01	3.000000e+01	
45	3.791800e-02	1.534966e-03	-3.00000e+01	3.000000e+01	
46	3.891800e-02	1.569211e-03	-3.00000e+01	3.000000e+01	
47	3.991800e-02	1.599299e-03	-3.00000e+01	3.000000e+01	
48	4.091800e-02	1.615353e-03	-3.00000e+01	3.000000e+01	
49	4.191800e-02	1.622673e-03	-3.00000e+01	3.000000e+01	
50	4.291800e-02	1.613634e-03	-3.00000e+01	3.000000e+01	
51	4.391800e-02	1.595597e-03	-3.00000e+01	3.000000e+01	
52	4.491800e-02	1.563676e-03	-3.00000e+01	3.000000e+01	
53	4.591800e-02	1.527287e-03	-3.00000e+01	3.000000e+01	
54	4.691800e-02	1.483806e-03	-3.00000e+01	3.000000e+01	

Index   time            net-_r3-pad2_   net-_x1-pad4_   net-_x1-pad7_   
--------------------------------------------------------------------------------
55	4.791800e-02	1.443714e-03	-3.00000e+01	3.000000e+01	
56	4.891800e-02	1.405163e-03	-3.00000e+01	3.000000e+01	
57	4.991800e-02	1.377895e-03	-3.00000e+01	3.000000e+01	
58	5.091800e-02	1.358975e-03	-3.00000e+01	3.000000e+01	
59	5.191800e-02	1.355725e-03	-3.00000e+01	3.000000e+01	
60	5.291800e-02	1.362918e-03	-3.00000e+01	3.000000e+01	
61	5.391800e-02	1.384948e-03	-3.00000e+01	3.000000e+01	
62	5.491800e-02	1.414368e-03	-3.00000e+01	3.000000e+01	
63	5.591800e-02	1.453290e-03	-3.00000e+01	3.000000e+01	
64	5.691800e-02	1.493033e-03	-3.00000e+01	3.000000e+01	
65	5.791800e-02	1.534648e-03	-3.00000e+01	3.000000e+01	
66	5.891800e-02	1.569534e-03	-3.00000e+01	3.000000e+01	
67	5.991800e-02	1.598971e-03	-3.00000e+01	3.000000e+01	
68	6.091800e-02	1.615686e-03	-3.00000e+01	3.000000e+01	
69	6.191800e-02	1.622336e-03	-3.00000e+01	3.000000e+01	
70	6.291800e-02	1.613976e-03	-3.00000e+01	3.000000e+01	
71	6.391800e-02	1.595250e-03	-3.00000e+01	3.000000e+01	
72	6.491800e-02	1.564027e-03	-3.00000e+01	3.000000e+01	
73	6.591800e-02	1.526931e-03	-3.00000e+01	3.000000e+01	
74	6.691800e-02	1.484166e-03	-3.00000e+01	3.000000e+01	
75	6.791800e-02	1.443348e-03	-3.00000e+01	3.000000e+01	
76	6.891800e-02	1.405533e-03	-3.00000e+01	3.000000e+01	
77	6.991800e-02	1.377520e-03	-3.00000e+01	3.000000e+01	
78	7.091800e-02	1.359354e-03	-3.00000e+01	3.000000e+01	
79	7.191800e-02	1.355342e-03	-3.00000e+01	3.000000e+01	
80	7.291800e-02	1.363305e-03	-3.00000e+01	3.000000e+01	
81	7.391800e-02	1.384557e-03	-3.00000e+01	3.000000e+01	
82	7.491800e-02	1.414764e-03	-3.00000e+01	3.000000e+01	
83	7.591800e-02	1.452891e-03	-3.00000e+01	3.000000e+01	
84	7.691800e-02	1.493437e-03	-3.00000e+01	3.000000e+01	
85	7.791800e-02	1.534240e-03	-3.00000e+01	3.000000e+01	
86	7.891800e-02	1.569946e-03	-3.00000e+01	3.000000e+01	
87	7.991800e-02	1.598555e-03	-3.00000e+01	3.000000e+01	
88	8.091800e-02	1.616106e-03	-3.00000e+01	3.000000e+01	
89	8.191800e-02	1.621912e-03	-3.00000e+01	3.000000e+01	
90	8.291800e-02	1.614404e-03	-3.00000e+01	3.000000e+01	
91	8.391800e-02	1.594817e-03	-3.00000e+01	3.000000e+01	
92	8.491800e-02	1.564464e-03	-3.00000e+01	3.000000e+01	
93	8.591800e-02	1.526491e-03	-3.00000e+01	3.000000e+01	
94	8.691800e-02	1.484611e-03	-3.00000e+01	3.000000e+01	
95	8.791800e-02	1.442900e-03	-3.00000e+01	3.000000e+01	
96	8.891800e-02	1.405985e-03	-3.00000e+01	3.000000e+01	
97	8.991800e-02	1.377065e-03	-3.00000e+01	3.000000e+01	
98	9.091800e-02	1.359813e-03	-3.00000e+01	3.000000e+01	
99	9.191800e-02	1.354879e-03	-3.00000e+01	3.000000e+01	
100	9.291800e-02	1.363772e-03	-3.00000e+01	3.000000e+01	
101	9.391800e-02	1.384087e-03	-3.00000e+01	3.000000e+01	
102	9.491800e-02	1.415237e-03	-3.00000e+01	3.000000e+01	
103	9.591800e-02	1.452414e-03	-3.00000e+01	3.000000e+01	
104	9.691800e-02	1.493917e-03	-3.00000e+01	3.000000e+01	
105	9.791800e-02	1.533756e-03	-3.00000e+01	3.000000e+01	
106	9.891800e-02	1.570434e-03	-3.00000e+01	3.000000e+01	
107	9.991800e-02	1.598064e-03	-3.00000e+01	3.000000e+01	
108	1.000000e-01	1.599214e-03	-3.00000e+01	3.000000e+01	

                 * /home/ash98/esim-workspace/ina128/ina128.cir
                 Transient Analysis  Thu Jan  2 12:28:35  2020
--------------------------------------------------------------------------------
Index   time            out             x1.?            x1.net-_r1-pad2 
--------------------------------------------------------------------------------
0	0.000000e+00	1.466230e-03	-2.99911e+01	5.172046e-03	
1	1.000000e-05	-9.53195e-03	-2.99911e+01	1.111810e-02	
2	2.000000e-05	-2.22283e-02	-2.99911e+01	1.764168e-02	
3	4.000000e-05	-4.80150e-02	-2.99911e+01	3.080116e-02	
4	8.000000e-05	-9.97111e-02	-2.99911e+01	5.714953e-02	
5	1.600000e-04	-2.02936e-01	-2.99911e+01	1.097858e-01	
6	3.200000e-04	-4.09037e-01	-2.99911e+01	2.148548e-01	
7	6.400000e-04	-8.17502e-01	-2.99911e+01	4.231249e-01	
8	1.065999e-03	-1.34782e+00	-2.99911e+01	6.935032e-01	
9	1.917996e-03	-2.32690e+00	-2.99911e+01	1.192691e+00	
10	2.917996e-03	-3.26012e+00	-2.99911e+01	1.668444e+00	
11	3.917996e-03	-3.87400e+00	-2.99912e+01	1.981362e+00	
12	4.917996e-03	-4.10860e+00	-2.99912e+01	2.100858e+00	
13	5.917996e-03	-3.94080e+00	-2.99911e+01	2.015190e+00	
14	6.917996e-03	-3.38718e+00	-2.99911e+01	1.732788e+00	
15	7.917996e-03	-2.50178e+00	-2.99911e+01	1.281254e+00	
16	8.917996e-03	-1.37142e+00	-2.99911e+01	7.048305e-01	
17	9.917996e-03	-1.06599e-01	-2.99911e+01	5.989194e-02	
18	1.091800e-02	1.168736e+00	-2.99911e+01	-5.90342e-01	
19	1.191800e-02	2.329888e+00	-2.99911e+01	-1.18231e+00	
20	1.291800e-02	3.263035e+00	-2.99911e+01	-1.65802e+00	
21	1.391800e-02	3.876998e+00	-2.99911e+01	-1.97095e+00	
22	1.491800e-02	4.111515e+00	-2.99911e+01	-2.09042e+00	
23	1.591800e-02	3.943792e+00	-2.99911e+01	-2.00478e+00	
24	1.691800e-02	3.390087e+00	-2.99911e+01	-1.72238e+00	
25	1.791800e-02	2.504761e+00	-2.99911e+01	-1.27088e+00	
26	1.891800e-02	1.374316e+00	-2.99911e+01	-6.94466e-01	
27	1.991800e-02	1.095699e-01	-2.99911e+01	-4.95630e-02	
28	2.091800e-02	-1.16583e+00	-2.99911e+01	6.007291e-01	
29	2.191800e-02	-2.32690e+00	-2.99911e+01	1.192681e+00	
30	2.291800e-02	-3.26012e+00	-2.99911e+01	1.668453e+00	
31	2.391800e-02	-3.87401e+00	-2.99912e+01	1.981352e+00	
32	2.491800e-02	-4.10859e+00	-2.99912e+01	2.100868e+00	
33	2.591800e-02	-3.94080e+00	-2.99911e+01	2.015180e+00	
34	2.691800e-02	-3.38717e+00	-2.99911e+01	1.732798e+00	
35	2.791800e-02	-2.50178e+00	-2.99911e+01	1.281244e+00	
36	2.891800e-02	-1.37141e+00	-2.99911e+01	7.048399e-01	
37	2.991800e-02	-1.06606e-01	-2.99911e+01	5.988263e-02	
38	3.091800e-02	1.168744e+00	-2.99911e+01	-5.90333e-01	
39	3.191800e-02	2.329880e+00	-2.99911e+01	-1.18232e+00	
40	3.291800e-02	3.263042e+00	-2.99911e+01	-1.65801e+00	
41	3.391800e-02	3.876990e+00	-2.99911e+01	-1.97096e+00	
42	3.491800e-02	4.111522e+00	-2.99911e+01	-2.09041e+00	
43	3.591800e-02	3.943785e+00	-2.99911e+01	-2.00479e+00	
44	3.691800e-02	3.390095e+00	-2.99911e+01	-1.72237e+00	
45	3.791800e-02	2.504753e+00	-2.99911e+01	-1.27089e+00	
46	3.891800e-02	1.374324e+00	-2.99911e+01	-6.94457e-01	
47	3.991800e-02	1.095617e-01	-2.99911e+01	-4.95718e-02	
48	4.091800e-02	-1.16582e+00	-2.99911e+01	6.007378e-01	
49	4.191800e-02	-2.32691e+00	-2.99911e+01	1.192672e+00	
50	4.291800e-02	-3.26011e+00	-2.99911e+01	1.668462e+00	
51	4.391800e-02	-3.87402e+00	-2.99912e+01	1.981344e+00	
52	4.491800e-02	-4.10858e+00	-2.99912e+01	2.100877e+00	
53	4.591800e-02	-3.94081e+00	-2.99911e+01	2.015172e+00	
54	4.691800e-02	-3.38716e+00	-2.99911e+01	1.732806e+00	

Index   time            out             x1.?            x1.net-_r1-pad2 
--------------------------------------------------------------------------------
55	4.791800e-02	-2.50179e+00	-2.99911e+01	1.281236e+00	
56	4.891800e-02	-1.37140e+00	-2.99911e+01	7.048482e-01	
57	4.991800e-02	-1.06616e-01	-2.99911e+01	5.987440e-02	
58	5.091800e-02	1.168753e+00	-2.99911e+01	-5.90325e-01	
59	5.191800e-02	2.329871e+00	-2.99911e+01	-1.18233e+00	
60	5.291800e-02	3.263052e+00	-2.99911e+01	-1.65801e+00	
61	5.391800e-02	3.876980e+00	-2.99911e+01	-1.97096e+00	
62	5.491800e-02	4.111532e+00	-2.99911e+01	-2.09040e+00	
63	5.591800e-02	3.943775e+00	-2.99911e+01	-2.00480e+00	
64	5.691800e-02	3.390105e+00	-2.99911e+01	-1.72236e+00	
65	5.791800e-02	2.504743e+00	-2.99911e+01	-1.27090e+00	
66	5.891800e-02	1.374334e+00	-2.99911e+01	-6.94449e-01	
67	5.991800e-02	1.095514e-01	-2.99911e+01	-4.95795e-02	
68	6.091800e-02	-1.16581e+00	-2.99911e+01	6.007455e-01	
69	6.191800e-02	-2.32692e+00	-2.99911e+01	1.192664e+00	
70	6.291800e-02	-3.26010e+00	-2.99911e+01	1.668470e+00	
71	6.391800e-02	-3.87403e+00	-2.99911e+01	1.981336e+00	
72	6.491800e-02	-4.10857e+00	-2.99912e+01	2.100884e+00	
73	6.591800e-02	-3.94082e+00	-2.99911e+01	2.015164e+00	
74	6.691800e-02	-3.38715e+00	-2.99911e+01	1.732814e+00	
75	6.791800e-02	-2.50180e+00	-2.99911e+01	1.281228e+00	
76	6.891800e-02	-1.37139e+00	-2.99911e+01	7.048556e-01	
77	6.991800e-02	-1.06627e-01	-2.99911e+01	5.986713e-02	
78	7.091800e-02	1.168764e+00	-2.99911e+01	-5.90317e-01	
79	7.191800e-02	2.329860e+00	-2.99911e+01	-1.18233e+00	
80	7.291800e-02	3.263063e+00	-2.99911e+01	-1.65800e+00	
81	7.391800e-02	3.876969e+00	-2.99911e+01	-1.97097e+00	
82	7.491800e-02	4.111543e+00	-2.99911e+01	-2.09040e+00	
83	7.591800e-02	3.943763e+00	-2.99911e+01	-2.00480e+00	
84	7.691800e-02	3.390117e+00	-2.99911e+01	-1.72235e+00	
85	7.791800e-02	2.504731e+00	-2.99911e+01	-1.27091e+00	
86	7.891800e-02	1.374346e+00	-2.99911e+01	-6.94442e-01	
87	7.991800e-02	1.095395e-01	-2.99911e+01	-4.95864e-02	
88	8.091800e-02	-1.16580e+00	-2.99911e+01	6.007523e-01	
89	8.191800e-02	-2.32694e+00	-2.99911e+01	1.192658e+00	
90	8.291800e-02	-3.26009e+00	-2.99911e+01	1.668477e+00	
91	8.391800e-02	-3.87404e+00	-2.99911e+01	1.981329e+00	
92	8.491800e-02	-4.10856e+00	-2.99912e+01	2.100891e+00	
93	8.591800e-02	-3.94083e+00	-2.99911e+01	2.015158e+00	
94	8.691800e-02	-3.38714e+00	-2.99911e+01	1.732821e+00	
95	8.791800e-02	-2.50182e+00	-2.99911e+01	1.281222e+00	
96	8.891800e-02	-1.37138e+00	-2.99911e+01	7.048620e-01	
97	8.991800e-02	-1.06639e-01	-2.99911e+01	5.986074e-02	
98	9.091800e-02	1.168777e+00	-2.99911e+01	-5.90311e-01	
99	9.191800e-02	2.329847e+00	-2.99911e+01	-1.18234e+00	
100	9.291800e-02	3.263076e+00	-2.99911e+01	-1.65799e+00	
101	9.391800e-02	3.876956e+00	-2.99911e+01	-1.97098e+00	
102	9.491800e-02	4.111556e+00	-2.99911e+01	-2.09039e+00	
103	9.591800e-02	3.943750e+00	-2.99911e+01	-2.00481e+00	
104	9.691800e-02	3.390130e+00	-2.99911e+01	-1.72235e+00	
105	9.791800e-02	2.504718e+00	-2.99911e+01	-1.27091e+00	
106	9.891800e-02	1.374359e+00	-2.99911e+01	-6.94437e-01	
107	9.991800e-02	1.095262e-01	-2.99911e+01	-4.95923e-02	
108	1.000000e-01	3.647557e-03	-2.99911e+01	4.509063e-03	

                 * /home/ash98/esim-workspace/ina128/ina128.cir
                 Transient Analysis  Thu Jan  2 12:28:35  2020
